Title: KiCad schematic
Date: Tue Apr 23 00:12:50  2024
Plotname: DC transfer characteristic
Flags: real
No. Variables: 3
No. Points: 20
Variables:
	0	v(v-sweep)	voltage
	1	v(/vg)	voltage
	2	i(va1)	current
Values:
 0	1.000000000000000e+01
	-1.200000000000000e+01
	-2.384000000000000e-04

 1	3.000000000000000e+01
	-1.200000000000000e+01
	-2.384000000000000e-04

 2	5.000000000000000e+01
	-1.200000000000000e+01
	-2.384000000000000e-04

 3	7.000000000000000e+01
	-1.200000000000000e+01
	-2.384000000000000e-04

 4	9.000000000000000e+01
	-1.200000000000000e+01
	-2.384000240877674e-04

 5	1.100000000000000e+02
	-1.200000000000000e+01
	-2.384048084862417e-04

 6	1.300000000000000e+02
	-1.200000000000000e+01
	-2.386024801436696e-04

 7	1.500000000000000e+02
	-1.200000000000000e+01
	-2.416771016144579e-04

 8	1.700000000000000e+02
	-1.200000000000000e+01
	-2.665110356439567e-04

 9	1.900000000000000e+02
	-1.200000000000000e+01
	-3.915691962436913e-04

 10	2.100000000000000e+02
	-1.200000000000000e+01
	-8.270423671438911e-04

 11	2.300000000000000e+02
	-1.200000000000000e+01
	-1.942645265803224e-03

 12	2.500000000000000e+02
	-1.200000000000000e+01
	-4.152780238883240e-03

 13	2.700000000000000e+02
	-1.200000000000000e+01
	-7.720940024774608e-03

 14	2.900000000000000e+02
	-1.200000000000000e+01
	-1.269969124477055e-02

 15	3.100000000000000e+02
	-1.200000000000000e+01
	-1.896922776232833e-02

 16	3.300000000000000e+02
	-1.200000000000000e+01
	-2.636174351658798e-02

 17	3.500000000000000e+02
	-1.200000000000000e+01
	-3.471420850246332e-02

 18	3.700000000000000e+02
	-1.200000000000000e+01
	-4.388974304442258e-02

 19	3.900000000000000e+02
	-1.200000000000000e+01
	-5.377967814356752e-02

Title: KiCad schematic
Date: Tue Apr 23 00:12:50  2024
Plotname: DC transfer characteristic
Flags: real
No. Variables: 3
No. Points: 20
Variables:
	0	v(v-sweep)	voltage
	1	v(/vg)	voltage
	2	i(va1)	current
Values:
 0	1.000000000000000e+01
	-1.000000000000000e+01
	-2.384000000000000e-04

 1	3.000000000000000e+01
	-1.000000000000000e+01
	-2.384000000000000e-04

 2	5.000000000000000e+01
	-1.000000000000000e+01
	-2.384000000000000e-04

 3	7.000000000000000e+01
	-1.000000000000000e+01
	-2.384000000000065e-04

 4	9.000000000000000e+01
	-1.000000000000000e+01
	-2.384037403910548e-04

 5	1.100000000000000e+02
	-1.000000000000000e+01
	-2.387036914889740e-04

 6	1.300000000000000e+02
	-1.000000000000000e+01
	-2.451831598349418e-04

 7	1.500000000000000e+02
	-1.000000000000000e+01
	-3.059352900250299e-04

 8	1.700000000000000e+02
	-1.000000000000000e+01
	-6.210108070789395e-04

 9	1.900000000000000e+02
	-1.000000000000000e+01
	-1.647107495334194e-03

 10	2.100000000000000e+02
	-1.000000000000000e+01
	-3.942122136191518e-03

 11	2.300000000000000e+02
	-1.000000000000000e+01
	-7.810429620217956e-03

 12	2.500000000000000e+02
	-1.000000000000000e+01
	-1.322853474229146e-02

 13	2.700000000000000e+02
	-1.000000000000000e+01
	-1.997645952276796e-02

 14	2.900000000000000e+02
	-1.000000000000000e+01
	-2.782735924583499e-02

 15	3.100000000000000e+02
	-1.000000000000000e+01
	-3.659441905336680e-02

 16	3.300000000000000e+02
	-1.000000000000000e+01
	-4.613655015550866e-02

 17	3.500000000000000e+02
	-1.000000000000000e+01
	-5.634906353877909e-02

 18	3.700000000000000e+02
	-1.000000000000000e+01
	-6.715343926282898e-02

 19	3.900000000000000e+02
	-1.000000000000000e+01
	-7.848950265337064e-02

Title: KiCad schematic
Date: Tue Apr 23 00:12:50  2024
Plotname: DC transfer characteristic
Flags: real
No. Variables: 3
No. Points: 20
Variables:
	0	v(v-sweep)	voltage
	1	v(/vg)	voltage
	2	i(va1)	current
Values:
 0	1.000000000000000e+01
	-8.000000000000000e+00
	-2.384000000000000e-04

 1	3.000000000000000e+01
	-8.000000000000000e+00
	-2.384000000000000e-04

 2	5.000000000000000e+01
	-8.000000000000000e+00
	-2.384000000000000e-04

 3	7.000000000000000e+01
	-8.000000000000000e+00
	-2.384028550393527e-04

 4	9.000000000000000e+01
	-8.000000000000000e+00
	-2.389799830288493e-04

 5	1.100000000000000e+02
	-8.000000000000000e+00
	-2.572956830773121e-04

 6	1.300000000000000e+02
	-8.000000000000000e+00
	-4.498357920242246e-04

 7	1.500000000000000e+02
	-8.000000000000000e+00
	-1.375092663198274e-03

 8	1.700000000000000e+02
	-8.000000000000000e+00
	-3.825019426446487e-03

 9	1.900000000000000e+02
	-8.000000000000000e+00
	-8.124542652877329e-03

 10	2.100000000000000e+02
	-8.000000000000000e+00
	-1.408714382790752e-02

 11	2.300000000000000e+02
	-8.000000000000000e+00
	-2.136247355120256e-02

 12	2.500000000000000e+02
	-8.000000000000000e+00
	-2.967795772334821e-02

 13	2.700000000000000e+02
	-8.000000000000000e+00
	-3.884227678519506e-02

 14	2.900000000000000e+02
	-8.000000000000000e+00
	-4.872363249868784e-02

 15	3.100000000000000e+02
	-8.000000000000000e+00
	-5.922879200722878e-02

 16	3.300000000000000e+02
	-8.000000000000000e+00
	-7.028923027056555e-02

 17	3.500000000000000e+02
	-8.000000000000000e+00
	-8.185265028592706e-02

 18	3.700000000000000e+02
	-8.000000000000000e+00
	-9.387779740408292e-02

 19	3.900000000000000e+02
	-8.000000000000000e+00
	-1.063312085993263e-01

Title: KiCad schematic
Date: Tue Apr 23 00:12:50  2024
Plotname: DC transfer characteristic
Flags: real
No. Variables: 3
No. Points: 20
Variables:
	0	v(v-sweep)	voltage
	1	v(/vg)	voltage
	2	i(va1)	current
Values:
 0	1.000000000000000e+01
	-6.000000000000000e+00
	-2.384000000000000e-04

 1	3.000000000000000e+01
	-6.000000000000000e+00
	-2.384000000000000e-04

 2	5.000000000000000e+01
	-6.000000000000000e+00
	-2.384022925224090e-04

 3	7.000000000000000e+01
	-6.000000000000000e+00
	-2.401646890036493e-04

 4	9.000000000000000e+01
	-6.000000000000000e+00
	-3.232028998479622e-04

 5	1.100000000000000e+02
	-6.000000000000000e+00
	-1.137272219054659e-03

 6	1.300000000000000e+02
	-6.000000000000000e+00
	-3.882667227332146e-03

 7	1.500000000000000e+02
	-6.000000000000000e+00
	-8.797881329488579e-03

 8	1.700000000000000e+02
	-6.000000000000000e+00
	-1.539007459685141e-02

 9	1.900000000000000e+02
	-6.000000000000000e+00
	-2.319613445142923e-02

 10	2.100000000000000e+02
	-6.000000000000000e+00
	-3.194217934784426e-02

 11	2.300000000000000e+02
	-6.000000000000000e+00
	-4.145906380072639e-02

 12	2.500000000000000e+02
	-6.000000000000000e+00
	-5.163592183175742e-02

 13	2.700000000000000e+02
	-6.000000000000000e+00
	-6.239497633197881e-02

 14	2.900000000000000e+02
	-6.000000000000000e+00
	-7.367846640295168e-02

 15	3.100000000000000e+02
	-6.000000000000000e+00
	-8.544154953696066e-02

 16	3.300000000000000e+02
	-6.000000000000000e+00
	-9.764820150453854e-02

 17	3.500000000000000e+02
	-6.000000000000000e+00
	-1.102687026267527e-01

 18	3.700000000000000e+02
	-6.000000000000000e+00
	-1.232780138524890e-01

 19	3.900000000000000e+02
	-6.000000000000000e+00
	-1.366546798059559e-01

Title: KiCad schematic
Date: Tue Apr 23 00:12:50  2024
Plotname: DC transfer characteristic
Flags: real
No. Variables: 3
No. Points: 20
Variables:
	0	v(v-sweep)	voltage
	1	v(/vg)	voltage
	2	i(va1)	current
Values:
 0	1.000000000000000e+01
	-4.000000000000000e+00
	-2.384000000000039e-04

 1	3.000000000000000e+01
	-4.000000000000000e+00
	-2.384030901526425e-04

 2	5.000000000000000e+01
	-4.000000000000000e+00
	-2.534844840957429e-04

 3	7.000000000000000e+01
	-4.000000000000000e+00
	-9.690984168815272e-04

 4	9.000000000000000e+01
	-4.000000000000000e+00
	-4.311377690459574e-03

 5	1.100000000000000e+02
	-4.000000000000000e+00
	-1.002230985739472e-02

 6	1.300000000000000e+02
	-4.000000000000000e+00
	-1.723027248178535e-02

 7	1.500000000000000e+02
	-4.000000000000000e+00
	-2.549447441963092e-02

 8	1.700000000000000e+02
	-4.000000000000000e+00
	-3.459564601584459e-02

 9	1.900000000000000e+02
	-4.000000000000000e+00
	-4.440183331870419e-02

 10	2.100000000000000e+02
	-4.000000000000000e+00
	-5.482424055226030e-02

 11	2.300000000000000e+02
	-4.000000000000000e+00
	-6.579828059623961e-02

 12	2.500000000000000e+02
	-4.000000000000000e+00
	-7.727440330923643e-02

 13	2.700000000000000e+02
	-4.000000000000000e+00
	-8.921311837951250e-02

 14	2.900000000000000e+02
	-4.000000000000000e+00
	-1.015820450749561e-01

 15	3.100000000000000e+02
	-4.000000000000000e+00
	-1.143540414625575e-01

 16	3.300000000000000e+02
	-4.000000000000000e+00
	-1.275059543036588e-01

 17	3.500000000000000e+02
	-4.000000000000000e+00
	-1.410177481876602e-01

 18	3.700000000000000e+02
	-4.000000000000000e+00
	-1.548718780109844e-01

 19	3.900000000000000e+02
	-4.000000000000000e+00
	-1.690528239951696e-01

Title: KiCad schematic
Date: Tue Apr 23 00:12:50  2024
Plotname: DC transfer characteristic
Flags: real
No. Variables: 3
No. Points: 20
Variables:
	0	v(v-sweep)	voltage
	1	v(/vg)	voltage
	2	i(va1)	current
Values:
 0	1.000000000000000e+01
	-2.000000000000000e+00
	-2.389508037887484e-04

 1	3.000000000000000e+01
	-2.000000000000000e+00
	-1.121063847772132e-03

 2	5.000000000000000e+01
	-2.000000000000000e+00
	-5.478184404721718e-03

 3	7.000000000000000e+01
	-2.000000000000000e+00
	-1.187719009966588e-02

 4	9.000000000000000e+01
	-2.000000000000000e+00
	-1.953318043539530e-02

 5	1.100000000000000e+02
	-2.000000000000000e+00
	-2.813227526169293e-02

 6	1.300000000000000e+02
	-2.000000000000000e+00
	-3.750471651001588e-02

 7	1.500000000000000e+02
	-2.000000000000000e+00
	-4.754191462642034e-02

 8	1.700000000000000e+02
	-2.000000000000000e+00
	-5.816744161457740e-02

 9	1.900000000000000e+02
	-2.000000000000000e+00
	-6.932401301372314e-02

 10	2.100000000000000e+02
	-2.000000000000000e+00
	-8.096676350986390e-02

 11	2.300000000000000e+02
	-2.000000000000000e+00
	-9.305940058365690e-02

 12	2.500000000000000e+02
	-2.000000000000000e+00
	-1.055718319084231e-01

 13	2.700000000000000e+02
	-2.000000000000000e+00
	-1.184786147591311e-01

 14	2.900000000000000e+02
	-2.000000000000000e+00
	-1.317578954353587e-01

 15	3.100000000000000e+02
	-2.000000000000000e+00
	-1.453906567040772e-01

 16	3.300000000000000e+02
	-2.000000000000000e+00
	-1.593601674164279e-01

 17	3.500000000000000e+02
	-2.000000000000000e+00
	-1.736515696712840e-01

 18	3.700000000000000e+02
	-2.000000000000000e+00
	-1.882515624282054e-01

 19	3.900000000000000e+02
	-2.000000000000000e+00
	-2.031481545189839e-01

Title: KiCad schematic
Date: Tue Apr 23 00:12:50  2024
Plotname: DC transfer characteristic
Flags: real
No. Variables: 3
No. Points: 20
Variables:
	0	v(v-sweep)	voltage
	1	v(/vg)	voltage
	2	i(va1)	current
Values:
 0	1.000000000000000e+01
	0.000000000000000e+00
	-4.376887921494729e-03

 1	3.000000000000000e+01
	0.000000000000000e+00
	-1.324840797582179e-02

 2	5.000000000000000e+01
	0.000000000000000e+00
	-2.169451216304162e-02

 3	7.000000000000000e+01
	0.000000000000000e+00
	-3.073423232093218e-02

 4	9.000000000000000e+01
	0.000000000000000e+00
	-4.041806694147133e-02

 5	1.100000000000000e+02
	0.000000000000000e+00
	-5.070250942276696e-02

 6	1.300000000000000e+02
	0.000000000000000e+00
	-6.153675187058530e-02

 7	1.500000000000000e+02
	0.000000000000000e+00
	-7.287610535523832e-02

 8	1.700000000000000e+02
	0.000000000000000e+00
	-8.468281766462367e-02

 9	1.900000000000000e+02
	0.000000000000000e+00
	-9.692501939305972e-02

 10	2.100000000000000e+02
	0.000000000000000e+00
	-1.095755690187769e-01

 11	2.300000000000000e+02
	0.000000000000000e+00
	-1.226111000900097e-01

 12	2.500000000000000e+02
	0.000000000000000e+00
	-1.360112817670182e-01

 13	2.700000000000000e+02
	0.000000000000000e+00
	-1.497582514064090e-01

 14	2.900000000000000e+02
	0.000000000000000e+00
	-1.638361771715061e-01

 15	3.100000000000000e+02
	0.000000000000000e+00
	-1.782309174543659e-01

 16	3.300000000000000e+02
	0.000000000000000e+00
	-1.929297525339281e-01

 17	3.500000000000000e+02
	0.000000000000000e+00
	-2.079211706041155e-01

 18	3.700000000000000e+02
	0.000000000000000e+00
	-2.231946951829600e-01

 19	3.900000000000000e+02
	0.000000000000000e+00
	-2.387407443909133e-01

